Freq.	V(ampout)
1.00000000000000e-03	1.00000035762787e+00,2.95309703151969e-03
1.02329299228075e-03	1.00000047683716e+00,3.02188349514009e-03
1.04712854805090e-03	1.00000023841858e+00,3.09227220111370e-03
1.07151930523761e-03	1.00000047683716e+00,3.16430047045069e-03
1.09647819614318e-03	1.00000059604645e+00,3.23800649347307e-03
1.12201845430196e-03	1.00000059604645e+00,3.31342935016966e-03
1.14815362149688e-03	1.00000059604645e+00,3.39060903055126e-03
1.17489755493953e-03	1.00000047683716e+00,3.46958645638202e-03
1.20226443461741e-03	1.00000059604645e+00,3.55040350246100e-03
1.23026877081238e-03	1.00000047683716e+00,3.63310301909475e-03
1.25892541179417e-03	1.00000059604645e+00,3.71772885446407e-03
1.28824955169313e-03	1.00000083446503e+00,3.80432587852596e-03
1.31825673855641e-03	1.00000071525574e+00,3.89294000593626e-03
1.34896288259165e-03	1.00000059604645e+00,3.98361822130153e-03
1.38038426460288e-03	1.00000059604645e+00,4.07640860297513e-03
1.41253754462275e-03	1.00000071525574e+00,4.17136034995031e-03
1.44543977074593e-03	1.00000095367432e+00,4.26852380655622e-03
1.47910838816821e-03	1.00000083446503e+00,4.36795049027736e-03
1.51356124843621e-03	1.00000071525574e+00,4.46969311848784e-03
1.54881661891248e-03	1.00000083446503e+00,4.57380563632372e-03
1.58489319246111e-03	1.00000095367432e+00,4.68034324542896e-03
1.62181009735893e-03	1.00000095367432e+00,4.78936243360123e-03
1.65958690743756e-03	1.00000107288361e+00,4.90092100412016e-03
1.69824365246174e-03	1.00000095367432e+00,5.01507810661079e-03
1.73780082874937e-03	1.00000131130219e+00,5.13189426880697e-03
1.77827941003892e-03	1.00000119209290e+00,5.25143142799717e-03
1.81970085860998e-03	1.00000131130219e+00,5.37375296421723e-03
1.86208713666287e-03	1.00000143051147e+00,5.49892373397255e-03
1.90546071796324e-03	1.00000143051147e+00,5.62701010433079e-03
1.94984459975804e-03	1.00000143051147e+00,5.75807998833810e-03
1.99526231496888e-03	1.00000166893005e+00,5.89220288064708e-03
2.04173794466953e-03	1.00000178813934e+00,6.02944989505058e-03
2.08929613085404e-03	1.00000178813934e+00,6.16989380148602e-03
2.13796208950223e-03	1.00000166893005e+00,6.31360906521035e-03
2.18776162394955e-03	1.00000190734863e+00,6.46067188549842e-03
2.23872113856834e-03	1.00000214576721e+00,6.61116023714720e-03
2.29086765276777e-03	1.00000226497650e+00,6.76515391065652e-03
2.34422881531992e-03	1.00000202655792e+00,6.92273455548022e-03
2.39883291901949e-03	1.00000226497650e+00,7.08398572264211e-03
2.45470891568503e-03	1.00000226497650e+00,7.24899290962824e-03
2.51188643150958e-03	1.00000238418579e+00,7.41784360474981e-03
2.57039578276886e-03	1.00000250339508e+00,7.59062733505301e-03
2.63026799189538e-03	1.00000274181366e+00,7.76743571237595e-03
2.69153480392691e-03	1.00000286102295e+00,7.94836248247611e-03
2.75422870333816e-03	1.00000309944153e+00,8.13350357479299e-03
2.81838293126445e-03	1.00000333786011e+00,8.32295715348136e-03
2.88403150312660e-03	1.00000345706940e+00,8.51682366844450e-03
2.95120922666638e-03	1.00000369548798e+00,8.71520591070838e-03
3.01995172040201e-03	1.00000369548798e+00,8.91820906419607e-03
3.09029543251358e-03	1.00000381469727e+00,9.12594076327245e-03
3.16227766016837e-03	1.00000381469727e+00,9.33851115002424e-03
3.23593656929628e-03	1.00000417232513e+00,9.55603293122239e-03
3.31131121482590e-03	1.00000464916229e+00,9.77862143951964e-03
3.38844156139202e-03	1.00000476837158e+00,1.00063946933774e-02
3.46736850452531e-03	1.00000488758087e+00,1.02394734609104e-02
3.54813389233575e-03	1.00000524520874e+00,1.04779813226722e-02
3.63078054770101e-03	1.00000548362732e+00,1.07220447381466e-02
3.71535229097172e-03	1.00000572204590e+00,1.09717931119216e-02
3.80189396320560e-03	1.00000572204590e+00,1.12273588633572e-02
3.89045144994280e-03	1.00000619888306e+00,1.14888774956174e-02
3.98107170553496e-03	1.00000667572021e+00,1.17564876687269e-02
4.07380277804112e-03	1.00000679492950e+00,1.20303312719907e-02
4.16869383470334e-03	1.00000715255737e+00,1.23105534996979e-02
4.26579518801592e-03	1.00000739097595e+00,1.25973029283060e-02
4.36515832240165e-03	1.00000786781311e+00,1.28907315950030e-02
4.46683592150962e-03	1.00000822544098e+00,1.31909950778567e-02
4.57088189614874e-03	1.00000870227814e+00,1.34982525797761e-02
4.67735141287197e-03	1.00000882148743e+00,1.38126670106731e-02
4.78630092322637e-03	1.00000965595245e+00,1.41344050756583e-02
4.89778819368445e-03	1.00000989437103e+00,1.44636373628144e-02
5.01187233627271e-03	1.00001025199890e+00,1.48005384336161e-02
5.12861383991363e-03	1.00001084804535e+00,1.51452869153612e-02
5.24807460249771e-03	1.00001132488251e+00,1.54980655956142e-02
5.37031796370251e-03	1.00001180171967e+00,1.58590615209904e-02
5.49540873857623e-03	1.00001239776611e+00,1.62284660928699e-02
5.62341325190347e-03	1.00001287460327e+00,1.66064751723222e-02
5.75439937337155e-03	1.00001347064972e+00,1.69932891815379e-02
5.88843655355587e-03	1.00001430511475e+00,1.73891132126713e-02
6.02559586074356e-03	1.00001513957977e+00,1.77941571312829e-02
6.16595001861480e-03	1.00001561641693e+00,1.82086356953468e-02
6.30957344480191e-03	1.00001645088196e+00,1.86327686617636e-02
6.45654229034654e-03	1.00001716613770e+00,1.90667809085440e-02
6.60693448007594e-03	1.00001788139343e+00,1.95109025497924e-02
6.76082975391980e-03	1.00001871585846e+00,1.99653690600073e-02
6.91830970918934e-03	1.00001978874207e+00,2.04304213981710e-02
7.07945784384136e-03	1.00002062320709e+00,2.09063061371320e-02
7.24435960074988e-03	1.00002145767212e+00,2.13932755898120e-02
7.41310241300915e-03	1.00002264976501e+00,2.18915879483298e-02
7.58577575029181e-03	1.00002372264862e+00,2.24015074184660e-02
7.76247116628689e-03	1.00002479553223e+00,2.29233043589988e-02
7.94328234724279e-03	1.00002574920654e+00,2.34572554254864e-02
8.12830516164097e-03	1.00002706050873e+00,2.40036437184963e-02
8.31763771102668e-03	1.00002837181091e+00,2.45627589309874e-02
8.51138038202373e-03	1.00002968311310e+00,2.51348975047979e-02
8.70963589956078e-03	1.00003111362457e+00,2.57203627843803e-02
8.91250938133742e-03	1.00003266334534e+00,2.63194651813357e-02
9.12010839355906e-03	1.00003409385681e+00,2.69325223361957e-02
9.33254300796988e-03	1.00003552436829e+00,2.75598592874036e-02
9.54992586021432e-03	1.00003743171692e+00,2.82018086441075e-02
9.77237220955807e-03	1.00003921985626e+00,2.88587107627650e-02
9.99999999999996e-03	1.00004100799561e+00,2.95309139260769e-02
1.02329299228075e-02	1.00004303455353e+00,3.02187745293326e-02
1.04712854805090e-02	1.00004494190216e+00,3.09226572676027e-02
1.07151930523760e-02	1.00004720687866e+00,3.16429353309780e-02
1.09647819614318e-02	1.00004923343658e+00,3.23799905998087e-02
1.12201845430196e-02	1.00005185604095e+00,3.31342138496844e-02
1.14815362149688e-02	1.00005412101746e+00,3.39060049576841e-02
1.17489755493952e-02	1.00005662441254e+00,3.46957731109569e-02
1.20226443461741e-02	1.00005936622620e+00,3.55039370320294e-02
1.23026877081238e-02	1.00006198883057e+00,3.63309251895040e-02
1.25892541179416e-02	1.00006508827209e+00,3.71771760345898e-02
1.28824955169313e-02	1.00006806850433e+00,3.80431382281055e-02
1.31825673855640e-02	1.00007116794586e+00,3.89292708806110e-02
1.34896288259165e-02	1.00007462501526e+00,3.98360437938088e-02
1.38038426460288e-02	1.00007820129395e+00,4.07639377116873e-02
1.41253754462275e-02	1.00008165836334e+00,4.17134445737809e-02
1.44543977074592e-02	1.00008583068848e+00,4.26850677735124e-02
1.47910838816820e-02	1.00008988380432e+00,4.36793224326293e-02
1.51356124843620e-02	1.00009405612946e+00,4.46967356642043e-02
1.54881661891247e-02	1.00009822845459e+00,4.57378468585065e-02
1.58489319246111e-02	1.00010299682617e+00,4.68032079659074e-02
1.62181009735892e-02	1.00010800361633e+00,4.78933837929162e-02
1.65958690743755e-02	1.00011301040649e+00,4.90089522948264e-02
1.69824365246174e-02	1.00011837482452e+00,5.01505048861506e-02
1.73780082874937e-02	1.00012362003326e+00,5.13186467561366e-02
1.77827941003891e-02	1.00012958049774e+00,5.25139971825907e-02
1.81970085860997e-02	1.00013589859009e+00,5.37371898668754e-02
1.86208713666286e-02	1.00014209747314e+00,5.49888732634019e-02
1.90546071796324e-02	1.00014901161194e+00,5.62697109281810e-02
1.94984459975804e-02	1.00015604496002e+00,5.75803818669498e-02
1.99526231496887e-02	1.00016343593597e+00,5.89215808951574e-02
2.04173794466952e-02	1.00017094612122e+00,6.02940190055733e-02
2.08929613085403e-02	1.00017893314362e+00,6.16984237456368e-02
2.13796208950222e-02	1.00018763542175e+00,6.31355396011593e-02
2.18776162394954e-02	1.00019621849060e+00,6.46061283940023e-02
2.23872113856833e-02	1.00020551681519e+00,6.61109696810255e-02
2.29086765276776e-02	1.00021529197693e+00,6.76508611674353e-02
2.34422881531991e-02	1.00022554397583e+00,6.92266191315671e-02
2.39883291901948e-02	1.00023627281189e+00,7.08390788492451e-02
2.45470891568502e-02	1.00024724006653e+00,7.24890950486337e-02
2.51188643150957e-02	1.00025904178619e+00,7.41775423502674e-02
2.57039578276885e-02	1.00027096271515e+00,7.59053157379963e-02
2.63026799189537e-02	1.00028383731842e+00,7.76733310240020e-02
2.69153480392690e-02	1.00029730796814e+00,7.94825253400725e-02
2.75422870333815e-02	1.00031125545502e+00,8.13338576297230e-02
2.81838293126444e-02	1.00032603740692e+00,8.32283091581047e-02
2.88403150312659e-02	1.00034141540527e+00,8.51668840278429e-02
2.95120922666637e-02	1.00035727024078e+00,8.71506097075798e-02
3.01995172040200e-02	1.00037443637848e+00,8.91805375825412e-02
3.09029543251357e-02	1.00039184093475e+00,9.12577435034075e-02
3.16227766016836e-02	1.00041019916534e+00,9.33833283538206e-02
3.23593656929626e-02	1.00042974948883e+00,9.55584186390659e-02
3.31131121482589e-02	1.00045001506805e+00,9.77841670730601e-02
3.38844156139201e-02	1.00047111511230e+00,1.00061753192444e-01
3.46736850452530e-02	1.00049340724945e+00,1.02392383974063e-01
3.54813389233573e-02	1.00051653385162e+00,1.04777294480402e-01
3.63078054770099e-02	1.00054097175598e+00,1.07217748498236e-01
3.71535229097170e-02	1.00056636333466e+00,1.09715039216258e-01
3.80189396320559e-02	1.00059318542480e+00,1.12270489906927e-01
3.89045144994278e-02	1.00062096118927e+00,1.14885454618490e-01
3.98107170553495e-02	1.00065040588379e+00,1.17561318885634e-01
4.07380277804110e-02	1.00068104267120e+00,1.20299500471481e-01
4.16869383470333e-02	1.00071322917938e+00,1.23101450104499e-01
4.26579518801590e-02	1.00074672698975e+00,1.25968652249294e-01
4.36515832240163e-02	1.00078165531158e+00,1.28902625881635e-01
4.46683592150960e-02	1.00081872940063e+00,1.31904925290593e-01
4.57088189614872e-02	1.00085735321045e+00,1.34977140896757e-01
4.67735141287195e-02	1.00089764595032e+00,1.38120900096726e-01
4.78630092322635e-02	1.00093996524811e+00,1.41337868086412e-01
4.89778819368443e-02	1.00098431110382e+00,1.44629748791074e-01
5.01187233627269e-02	1.00103092193604e+00,1.47998285712344e-01
5.12861383991362e-02	1.00107920169830e+00,1.51445262856563e-01
5.24807460249769e-02	1.00113034248352e+00,1.54972505685144e-01
5.37031796370249e-02	1.00118350982666e+00,1.58581882059853e-01
5.49540873857621e-02	1.00123918056488e+00,1.62275303218577e-01
5.62341325190346e-02	1.00129747390747e+00,1.66054724781594e-01
5.75439937337153e-02	1.00135874748230e+00,1.69922147793408e-01
5.88843655355585e-02	1.00142264366150e+00,1.73879619723937e-01
6.02559586074354e-02	1.00148975849152e+00,1.77929235591663e-01
6.16595001861478e-02	1.00156009197235e+00,1.82073139030888e-01
6.30957344480189e-02	1.00163352489471e+00,1.86313523411493e-01
6.45654229034651e-02	1.00171065330505e+00,1.90652632990899e-01
6.60693448007592e-02	1.00179111957550e+00,1.95092764082955e-01
6.76082975391978e-02	1.00187563896179e+00,1.99636266248858e-01
6.91830970918932e-02	1.00196409225464e+00,2.04285543535502e-01
7.07945784384133e-02	1.00205636024475e+00,2.09043055710438e-01
7.24435960074985e-02	1.00215339660645e+00,2.13911319544271e-01
7.41310241300913e-02	1.00225496292114e+00,2.18892910128628e-01
7.58577575029179e-02	1.00236105918884e+00,2.23990462197519e-01
7.76247116628687e-02	1.00247240066528e+00,2.29206671509679e-01
7.94328234724276e-02	1.00258910655975e+00,2.34544296220748e-01
8.12830516164094e-02	1.00271105766296e+00,2.40006158331683e-01
8.31763771102666e-02	1.00283861160278e+00,2.45595145130394e-01
8.51138038202371e-02	1.00297248363495e+00,2.51314210704529e-01
8.70963589956075e-02	1.00311255455017e+00,2.57166377423767e-01
8.91250938133740e-02	1.00325918197632e+00,2.63154737549165e-01
9.12010839355904e-02	1.00341272354126e+00,2.69282454767966e-01
9.33254300796985e-02	1.00357365608215e+00,2.75552765848685e-01
9.54992586021430e-02	1.00374197959900e+00,2.81968982286030e-01
9.77237220955804e-02	1.00391840934753e+00,2.88534492018668e-01
9.99999999999993e-02	1.00410294532776e+00,2.95252761114804e-01
1.02329299228075e-01	1.00429606437683e+00,3.02127335581425e-01
1.04712854805089e-01	1.00449883937836e+00,3.09161843126112e-01
1.07151930523760e-01	1.00471055507660e+00,3.16359995047595e-01
1.09647819614318e-01	1.00493276119232e+00,3.23725588058555e-01
1.12201845430196e-01	1.00516510009766e+00,3.31262506267656e-01
1.14815362149687e-01	1.00540840625763e+00,3.38974723083661e-01
1.17489755493952e-01	1.00566315650940e+00,3.46866303238123e-01
1.20226443461740e-01	1.00592994689941e+00,3.54941404825019e-01
1.23026877081237e-01	1.00620925426483e+00,3.63204281370883e-01
1.25892541179416e-01	1.00650203227997e+00,3.71659283959139e-01
1.28824955169312e-01	1.00680851936340e+00,3.80310863412035e-01
1.31825673855640e-01	1.00712919235229e+00,3.89163572475972e-01
1.34896288259164e-01	1.00746488571167e+00,3.98222068074583e-01
1.38038426460287e-01	1.00781679153442e+00,4.07491113609254e-01
1.41253754462274e-01	1.00818490982056e+00,4.16975581293524e-01
1.44543977074592e-01	1.00857055187225e+00,4.26680454531530e-01
1.47910838816820e-01	1.00897431373596e+00,4.36610830381151e-01
1.51356124843620e-01	1.00939702987671e+00,4.46771921915516e-01
1.54881661891247e-01	1.00983941555023e+00,4.57169060909765e-01
1.58489319246110e-01	1.01030313968658e+00,4.67807700222879e-01
1.62181009735892e-01	1.01078844070435e+00,4.78693416572536e-01
1.65958690743755e-01	1.01129698753357e+00,4.89831913018583e-01
1.69824365246173e-01	1.01182878017426e+00,5.01229021825982e-01
1.73780082874936e-01	1.01238608360291e+00,5.12890707073643e-01
1.77827941003891e-01	1.01296925544739e+00,5.24823067527535e-01
1.81970085860997e-01	1.01358020305634e+00,5.37032339439248e-01
1.86208713666285e-01	1.01421988010406e+00,5.49524899398777e-01
1.90546071796323e-01	1.01488947868347e+00,5.62307267353316e-01
1.94984459975803e-01	1.01559066772461e+00,5.75386109405826e-01
1.99526231496886e-01	1.01632475852966e+00,5.88768240999849e-01
2.04173794466951e-01	1.01709377765656e+00,6.02460629840043e-01
2.08929613085402e-01	1.01789832115173e+00,6.16470399056674e-01
2.13796208950222e-01	1.01874148845673e+00,6.30804830268448e-01
2.18776162394954e-01	1.01962375640869e+00,6.45471366814762e-01
2.23872113856832e-01	1.02054774761200e+00,6.60477616947292e-01
2.29086765276776e-01	1.02151489257812e+00,6.75831356987695e-01
2.34422881531990e-01	1.02252793312073e+00,6.91540534722489e-01
2.39883291901947e-01	1.02358853816986e+00,7.07613272594638e-01
2.45470891568501e-01	1.02469909191132e+00,7.24057871098429e-01
2.51188643150956e-01	1.02586150169373e+00,7.40882812140462e-01
2.57039578276884e-01	1.02707886695862e+00,7.58096762319328e-01
2.63026799189536e-01	1.02835333347321e+00,7.75708576469565e-01
2.69153480392689e-01	1.02968764305115e+00,7.93727300954882e-01
2.75422870333815e-01	1.03108465671539e+00,8.12162177090143e-01
2.81838293126443e-01	1.03254747390747e+00,8.31022644678541e-01
2.88403150312658e-01	1.03407907485962e+00,8.50318345291273e-01
2.95120922666636e-01	1.03568267822266e+00,8.70059125831821e-01
3.01995172040199e-01	1.03736126422882e+00,8.90255041815633e-01
3.09029543251357e-01	1.03911864757538e+00,9.10916360873413e-01
3.16227766016835e-01	1.04095888137817e+00,9.32053566091787e-01
3.23593656929626e-01	1.04288530349731e+00,9.53677359279429e-01
3.31131121482588e-01	1.04490220546722e+00,9.75798664463578e-01
3.38844156139200e-01	1.04701364040375e+00,9.98428630878342e-01
3.46736850452529e-01	1.04922425746918e+00,1.02157863640022e+00
3.54813389233573e-01	1.05153858661652e+00,1.04526029050255e+00
3.63078054770098e-01	1.05396127700806e+00,1.06948543740640e+00
3.71535229097170e-01	1.05649781227112e+00,1.09426615901469e+00
3.80189396320558e-01	1.05915284156799e+00,1.11961477768364e+00
3.89045144994277e-01	1.06193256378174e+00,1.14554385905525e+00
3.98107170553494e-01	1.06484258174896e+00,1.17206621454412e+00
4.07380277804109e-01	1.06788861751556e+00,1.19919490385823e+00
4.16869383470332e-01	1.07107758522034e+00,1.22694323726215e+00
4.26579518801589e-01	1.07441556453705e+00,1.25532477747444e+00
4.36515832240162e-01	1.07790982723236e+00,1.28435334189017e+00
4.46683592150959e-01	1.08156764507294e+00,1.31404300373291e+00
4.57088189614871e-01	1.08539640903473e+00,1.34440809391143e+00
4.67735141287194e-01	1.08940410614014e+00,1.37546320173792e+00
4.78630092322634e-01	1.09359896183014e+00,1.40722317583603e+00
4.89778819368442e-01	1.09799003601074e+00,1.43970312468299e+00
5.01187233627268e-01	1.10258579254150e+00,1.47291841647403e+00
5.12861383991360e-01	1.10739624500275e+00,1.50688467885140e+00
5.24807460249768e-01	1.11243104934692e+00,1.54161779830801e+00
5.37031796370248e-01	1.11770021915436e+00,1.57713391847982e+00
5.49540873857620e-01	1.12321519851685e+00,1.61344943884489e+00
5.62341325190344e-01	1.12898707389832e+00,1.65058101203991e+00
5.75439937337152e-01	1.13502752780914e+00,1.68854554102782e+00
5.88843655355584e-01	1.14134895801544e+00,1.72736017538441e+00
6.02559586074352e-01	1.14796423912048e+00,1.76704230707000e+00
6.16595001861477e-01	1.15488672256470e+00,1.80760956510334e+00
6.30957344480188e-01	1.16213095188141e+00,1.84907980988316e+00
6.45654229034650e-01	1.16971111297607e+00,1.89147112607316e+00
6.60693448007590e-01	1.17764246463776e+00,1.93480181487715e+00
6.76082975391976e-01	1.18594121932983e+00,1.97909038523001e+00
6.91830970918930e-01	1.19462466239929e+00,2.02435554385019e+00
7.07945784384132e-01	1.20370912551880e+00,2.07061618392352e+00
7.24435960074984e-01	1.21321380138397e+00,2.11789137275694e+00
7.41310241300911e-01	1.22315669059753e+00,2.16620033813124e+00
7.58577575029177e-01	1.23355865478516e+00,2.21556245270231e+00
7.76247116628685e-01	1.24443960189819e+00,2.26599721735872e+00
7.94328234724274e-01	1.25582134723663e+00,2.31752424289895e+00
8.12830516164092e-01	1.26772642135620e+00,2.37016322929622e+00
8.31763771102663e-01	1.28017795085907e+00,2.42393394393333e+00
8.51138038202369e-01	1.29320049285889e+00,2.47885619728966e+00
8.70963589956073e-01	1.30681967735291e+00,2.53494981651406e+00
8.91250938133737e-01	1.32106173038483e+00,2.59223461691054e+00
9.12010839355901e-01	1.33595418930054e+00,2.65073037098468e+00
9.33254300796982e-01	1.35152578353882e+00,2.71045677480655e+00
9.54992586021427e-01	1.36780679225922e+00,2.77143341147346e+00
9.77237220955801e-01	1.38482785224915e+00,2.83367971248569e+00
9.99999999999990e-01	1.40262138843536e+00,2.89721491519190e+00
1.02329299228074e+00	1.42122125625610e+00,2.96205801736159e+00
1.04712854805089e+00	1.44066214561462e+00,3.02822772877593e+00
1.07151930523760e+00	1.46098065376282e+00,3.09574241883417e+00
1.09647819614317e+00	1.48221421241760e+00,3.16462006058233e+00
1.12201845430195e+00	1.50440216064453e+00,3.23487817059476e+00
1.14815362149687e+00	1.52758502960205e+00,3.30653374557603e+00
1.17489755493952e+00	1.55180549621582e+00,3.37960319365033e+00
1.20226443461740e+00	1.57710659503937e+00,3.45410226201880e+00
1.23026877081237e+00	1.60353422164917e+00,3.53004595960247e+00
1.25892541179415e+00	1.63113522529602e+00,3.60744847469794e+00
1.28824955169312e+00	1.65995812416077e+00,3.68632308807941e+00
