Freq.	V(filtroout)
1.00000000000000e+01	9.99992646502266e-01,-3.84027386933716e-03
1.02329299228075e+01	9.99992300084366e-01,-3.92972490560570e-03
1.04712854805090e+01	9.99991937340332e-01,-4.02125949318040e-03
1.07151930523761e+01	9.99991557500739e-01,-4.11492616198931e-03
1.09647819614319e+01	9.99991159759902e-01,-4.21077457220916e-03
1.12201845430196e+01	9.99990743274165e-01,-4.30885554058097e-03
1.14815362149688e+01	9.99990307160115e-01,-4.40922106733769e-03
1.17489755493953e+01	9.99989850492702e-01,-4.51192436375830e-03
1.20226443461741e+01	9.99989372303281e-01,-4.61701988036267e-03
1.23026877081238e+01	9.99988871577558e-01,-4.72456333576236e-03
1.25892541179417e+01	9.99988347253437e-01,-4.83461174618215e-03
1.28824955169313e+01	9.99987798218766e-01,-4.94722345566823e-03
1.31825673855641e+01	9.99987223308982e-01,-5.06245816699871e-03
1.34896288259165e+01	9.99986621304636e-01,-5.18037697331291e-03
1.38038426460288e+01	9.99985990928814e-01,-5.30104239047587e-03
1.41253754462275e+01	9.99985330844416e-01,-5.42451839019527e-03
1.44543977074593e+01	9.99984639651334e-01,-5.55087043390816e-03
1.47910838816821e+01	9.99983915883474e-01,-5.68016550745521e-03
1.51356124843621e+01	9.99983158005648e-01,-5.81247215656083e-03
1.54881661891248e+01	9.99982364410319e-01,-5.94786052313767e-03
1.58489319246111e+01	9.99981533414190e-01,-6.08640238243470e-03
1.62181009735893e+01	9.99980663254634e-01,-6.22817118104828e-03
1.65958690743756e+01	9.99979752085956e-01,-6.37324207581608e-03
1.69824365246174e+01	9.99978797975479e-01,-6.52169197361452e-03
1.73780082874937e+01	9.99977798899442e-01,-6.67359957208019e-03
1.77827941003892e+01	9.99976752738712e-01,-6.82904540127693e-03
1.81970085860998e+01	9.99975657274286e-01,-6.98811186633017e-03
1.86208713666287e+01	9.99974510182583e-01,-7.15088329105089e-03
1.90546071796325e+01	9.99973309030523e-01,-7.31744596257207e-03
1.94984459975804e+01	9.99972051270356e-01,-7.48788817702079e-03
1.99526231496888e+01	9.99970734234271e-01,-7.66230028624997e-03
2.04173794466953e+01	9.99969355128725e-01,-7.84077474565408e-03
2.08929613085404e+01	9.99967911028527e-01,-8.02340616309372e-03
2.13796208950223e+01	9.99966398870629e-01,-8.21029134895453e-03
2.18776162394955e+01	9.99964815447634e-01,-8.40152936736662e-03
2.23872113856834e+01	9.99963157400991e-01,-8.59722158861090e-03
2.29086765276777e+01	9.99961421213869e-01,-8.79747174273977e-03
2.34422881531992e+01	9.99959603203704e-01,-9.00238597443990e-03
2.39883291901949e+01	9.99957699514384e-01,-9.21207289916540e-03
2.45470891568503e+01	9.99955706108075e-01,-9.42664366057080e-03
2.51188643150958e+01	9.99953618756654e-01,-9.64621198927317e-03
2.57039578276886e+01	9.99951433032741e-01,-9.87089426297381e-03
2.63026799189538e+01	9.99949144300315e-01,-1.01008095679709e-02
2.69153480392691e+01	9.99946747704878e-01,-1.03360797620942e-02
2.75422870333816e+01	9.99944238163158e-01,-1.05768295390948e-02
2.81838293126445e+01	9.99941610352336e-01,-1.08231864945222e-02
2.88403150312660e+01	9.99938858698745e-01,-1.10752811931237e-02
2.95120922666638e+01	9.99935977366064e-01,-1.13332472377997e-02
3.01995172040201e+01	9.99932960242932e-01,-1.15972213401498e-02
3.09029543251359e+01	9.99929800929991e-01,-1.18673433926474e-02
3.16227766016838e+01	9.99926492726313e-01,-1.21437565424778e-02
3.23593656929628e+01	9.99923028615194e-01,-1.24266072670779e-02
3.31131121482591e+01	9.99919401249269e-01,-1.27160454514171e-02
3.38844156139202e+01	9.99915602934934e-01,-1.30122244670560e-02
3.46736850452531e+01	9.99911625616034e-01,-1.33153012530253e-02
3.54813389233575e+01	9.99907460856775e-01,-1.36254363985644e-02
3.63078054770101e+01	9.99903099823840e-01,-1.39427942277615e-02
3.71535229097172e+01	9.99898533267651e-01,-1.42675428861376e-02
3.80189396320561e+01	9.99893751502767e-01,-1.45998544292187e-02
3.89045144994280e+01	9.99888744387338e-01,-1.49399049131383e-02
3.98107170553497e+01	9.99883501301604e-01,-1.52878744873177e-02
4.07380277804112e+01	9.99878011125378e-01,-1.56439474892678e-02
4.16869383470335e+01	9.99872262214465e-01,-1.60083125415615e-02
4.26579518801592e+01	9.99866242375978e-01,-1.63811626510224e-02
4.36515832240165e+01	9.99859938842481e-01,-1.67626953101794e-02
4.46683592150962e+01	9.99853338244927e-01,-1.71531126010375e-02
4.57088189614874e+01	9.99846426584305e-01,-1.75526213012138e-02
4.67735141287197e+01	9.99839189201969e-01,-1.79614329924910e-02
4.78630092322638e+01	9.99831610748556e-01,-1.83797641718414e-02
4.89778819368445e+01	9.99823675151450e-01,-1.88078363649732e-02
5.01187233627271e+01	9.99815365580704e-01,-1.92458762424549e-02
5.12861383991364e+01	9.99806664413367e-01,-1.96941157384717e-02
5.24807460249772e+01	9.99797553196128e-01,-2.01527921722714e-02
5.37031796370252e+01	9.99788012606196e-01,-2.06221483723555e-02
5.49540873857623e+01	9.99778022410341e-01,-2.11024328034748e-02
5.62341325190348e+01	9.99767561422014e-01,-2.15938996964875e-02
5.75439937337156e+01	9.99756607456436e-01,-2.20968091811404e-02
5.88843655355588e+01	9.99745137283576e-01,-2.26114274218332e-02
6.02559586074357e+01	9.99733126578928e-01,-2.31380267564283e-02
6.16595001861481e+01	9.99720549871948e-01,-2.36768858381685e-02
6.30957344480192e+01	9.99707380492085e-01,-2.42282897807658e-02
6.45654229034654e+01	9.99693590512260e-01,-2.47925303067251e-02
6.60693448007595e+01	9.99679150689684e-01,-2.53699058989696e-02
6.76082975391980e+01	9.99664030403905e-01,-2.59607219558314e-02
6.91830970918935e+01	9.99648197591917e-01,-2.65652909494757e-02
7.07945784384136e+01	9.99631618680236e-01,-2.71839325878248e-02
7.24435960074988e+01	9.99614258513766e-01,-2.78169739800509e-02
7.41310241300916e+01	9.99596080281328e-01,-2.84647498057049e-02
7.58577575029182e+01	9.99577045437677e-01,-2.91276024875518e-02
7.76247116628690e+01	9.99557113621859e-01,-2.98058823681808e-02
7.94328234724279e+01	9.99536242571719e-01,-3.04999478904617e-02
8.12830516164097e+01	9.99514388034393e-01,-3.12101657819172e-02
8.31763771102669e+01	9.99491503672593e-01,-3.19369112430807e-02
8.51138038202374e+01	9.99467540966476e-01,-3.26805681399132e-02
8.70963589956078e+01	9.99442449110912e-01,-3.34415292003477e-02
8.91250938133743e+01	9.99416174907906e-01,-3.42201962150327e-02
9.12010839355907e+01	9.99388662653979e-01,-3.50169802423463e-02
9.33254300796988e+01	9.99359854022245e-01,-3.58323018177506e-02
9.54992586021433e+01	9.99329687938947e-01,-3.66665911675564e-02
9.77237220955808e+01	9.99298100454200e-01,-3.75202884271685e-02
9.99999999999997e+01	9.99265024606643e-01,-3.83938438638783e-02
1.02329299228075e+02	9.99230390281754e-01,-3.92877181042749e-02
1.04712854805090e+02	9.99194124063494e-01,-4.02023823663372e-02
1.07151930523760e+02	9.99156149078991e-01,-4.11383186962750e-02
1.09647819614318e+02	9.99116384835928e-01,-4.20960202101820e-02
1.12201845430196e+02	9.99074747052296e-01,-4.30759913405621e-02
1.14815362149688e+02	9.99031147478164e-01,-4.40787480877890e-02
1.17489755493953e+02	9.98985493709068e-01,-4.51048182765553e-02
1.20226443461741e+02	9.98937688990667e-01,-4.61547418173670e-02
1.23026877081238e+02	9.98887632014207e-01,-4.72290709731331e-02
1.25892541179416e+02	9.98835216702421e-01,-4.83283706308985e-02
1.28824955169313e+02	9.98780331985366e-01,-4.94532185787643e-02
1.31825673855640e+02	9.98722861565768e-01,-5.06042057880335e-02
1.34896288259165e+02	9.98662683673361e-01,-5.17819367006180e-02
1.38038426460288e+02	9.98599670807717e-01,-5.29870295217344e-02
1.41253754462275e+02	9.98533689469027e-01,-5.42201165179127e-02
1.44543977074592e+02	9.98464599876286e-01,-5.54818443203333e-02
1.47910838816820e+02	9.98392255672269e-01,-5.67728742335018e-02
1.51356124843620e+02	9.98316503614714e-01,-5.80938825492622e-02
1.54881661891248e+02	9.98237183253049e-01,-5.94455608661418e-02
1.58489319246111e+02	9.98154126590002e-01,-6.08286164140088e-02
1.62181009735892e+02	9.98067157727398e-01,-6.22437723840167e-02
1.65958690743755e+02	9.97976092495392e-01,-6.36917682637944e-02
1.69824365246174e+02	9.97880738064386e-01,-6.51733601778316e-02
1.73780082874937e+02	9.97780892538835e-01,-6.66893212329943e-02
1.77827941003892e+02	9.97676344532079e-01,-6.82404418690887e-02
1.81970085860998e+02	9.97566872721350e-01,-6.98275302143796e-02
1.86208713666286e+02	9.97452245382031e-01,-7.14514124459482e-02
1.90546071796324e+02	9.97332219900200e-01,-7.31129331547567e-02
1.94984459975804e+02	9.97206542262470e-01,-7.48129557152682e-02
1.99526231496887e+02	9.97074946522095e-01,-7.65523626594449e-02
2.04173794466952e+02	9.96937154240208e-01,-7.83320560549266e-02
2.08929613085403e+02	9.96792873901103e-01,-8.01529578871631e-02
2.13796208950222e+02	9.96641800300328e-01,-8.20160104452480e-02
2.18776162394954e+02	9.96483613904375e-01,-8.39221767111691e-02
2.23872113856833e+02	9.96317980180645e-01,-8.58724407521592e-02
2.29086765276776e+02	9.96144548896361e-01,-8.78678081157946e-02
2.34422881531991e+02	9.95962953384975e-01,-8.99093062274511e-02
2.39883291901948e+02	9.95772809778633e-01,-9.19979847896855e-02
2.45470891568502e+02	9.95573716205126e-01,-9.41349161830647e-02
2.51188643150957e+02	9.95365251947728e-01,-9.63211958679218e-02
2.57039578276885e+02	9.95146976566250e-01,-9.85579427864580e-02
2.63026799189537e+02	9.94918428977548e-01,-1.00846299764562e-01
2.69153480392690e+02	9.94679126493665e-01,-1.03187433912657e-01
2.75422870333816e+02	9.94428563815700e-01,-1.05582537024806e-01
2.81838293126444e+02	9.94166211981424e-01,-1.08032825975278e-01
2.88403150312659e+02	9.93891517264571e-01,-1.10539543111635e-01
2.95120922666637e+02	9.93603900023650e-01,-1.13103956643398e-01
3.01995172040200e+02	9.93302753498033e-01,-1.15727361025198e-01
3.09029543251358e+02	9.92987442548980e-01,-1.18411077333268e-01
3.16227766016837e+02	9.92657302343169e-01,-1.21156453634005e-01
3.23593656929627e+02	9.92311636976200e-01,-1.23964865343248e-01
3.31131121482590e+02	9.91949718033423e-01,-1.26837715574783e-01
3.38844156139201e+02	9.91570783085378e-01,-1.29776435476468e-01
3.46736850452530e+02	9.91174034114955e-01,-1.32782484552258e-01
3.54813389233574e+02	9.90758635873355e-01,-1.35857350968226e-01
3.63078054770100e+02	9.90323714161740e-01,-1.39002551840573e-01
3.71535229097171e+02	9.89868354035394e-01,-1.42219633503424e-01
3.80189396320559e+02	9.89391597927069e-01,-1.45510171754032e-01
3.89045144994279e+02	9.88892443686083e-01,-1.48875772072853e-01
3.98107170553495e+02	9.88369842529581e-01,-1.52318069815717e-01
4.07380277804111e+02	9.87822696902285e-01,-1.55838730375132e-01
4.16869383470333e+02	9.87249858240879e-01,-1.59439449307515e-01
4.26579518801591e+02	9.86650124639074e-01,-1.63121952422895e-01
4.36515832240164e+02	9.86022238409243e-01,-1.66887995833382e-01
4.46683592150961e+02	9.85364883536389e-01,-1.70739365956395e-01
4.57088189614873e+02	9.84676683020060e-01,-1.74677879468351e-01
4.67735141287196e+02	9.83956196099687e-01,-1.78705383204192e-01
4.78630092322636e+02	9.83201915358677e-01,-1.82823753997770e-01
4.89778819368444e+02	9.82412263702476e-01,-1.87034898457757e-01
5.01187233627270e+02	9.81585591205626e-01,-1.91340752673331e-01
5.12861383991362e+02	9.80720171822751e-01,-1.95743281843479e-01
5.24807460249770e+02	9.79814199958240e-01,-2.00244479823294e-01
5.37031796370250e+02	9.78865786889292e-01,-2.04846368580182e-01
5.49540873857622e+02	9.77872957036805e-01,-2.09550997552331e-01
5.62341325190346e+02	9.76833644078525e-01,-2.14360442901312e-01
5.75439937337154e+02	9.75745686898736e-01,-2.19276806650011e-01
5.88843655355586e+02	9.74606825368626e-01,-2.24302215696539e-01
6.02559586074355e+02	9.73414695951418e-01,-2.29438820694045e-01
6.16595001861479e+02	9.72166827126256e-01,-2.34688794785654e-01
6.30957344480190e+02	9.70860634624711e-01,-2.40054332183009e-01
6.45654229034652e+02	9.69493416473790e-01,-2.45537646576051e-01
6.60693448007592e+02	9.68062347839250e-01,-2.51140969360832e-01
6.76082975391978e+02	9.66564475662972e-01,-2.56866547671215e-01
6.91830970918933e+02	9.64996713088246e-01,-2.62716642199345e-01
7.07945784384134e+02	9.63355833666728e-01,-2.68693524788716e-01
7.24435960074986e+02	9.61638465341023e-01,-2.74799475782564e-01
7.41310241300914e+02	9.59841084196837e-01,-2.81036781109116e-01
7.58577575029180e+02	9.57960007978855e-01,-2.87407729083971e-01
7.76247116628688e+02	9.55991389364645e-01,-2.93914606908568e-01
7.94328234724277e+02	9.53931208991156e-01,-3.00559696842243e-01
8.12830516164095e+02	9.51775268228626e-01,-3.07345272023919e-01
8.31763771102666e+02	9.49519181697115e-01,-3.14273591917808e-01
8.51138038202372e+02	9.47158369521278e-01,-3.21346897355885e-01
8.70963589956076e+02	9.44688049319486e-01,-3.28567405148026e-01
8.91250938133741e+02	9.42103227924017e-01,-3.35937302228841e-01
9.12010839355905e+02	9.39398692829705e-01,-3.43458739308206e-01
9.33254300796986e+02	9.36569003369237e-01,-3.51133823990362e-01
9.54992586021431e+02	9.33608481614166e-01,-3.58964613324178e-01
9.77237220955805e+02	9.30511203001803e-01,-3.66953105744839e-01
9.99999999999994e+02	9.27270986689258e-01,-3.75101232364638e-01
1.02329299228075e+03	9.23881385637306e-01,-3.83410847567947e-01
1.04712854805089e+03	9.20335676428216e-01,-3.91883718862620e-01
1.07151930523760e+03	9.16626848823383e-01,-4.00521515937123e-01
1.09647819614318e+03	9.12747595068554e-01,-4.09325798869599e-01
1.12201845430196e+03	9.08690298956511e-01,-4.18298005431786e-01
1.14815362149688e+03	9.04447024659513e-01,-4.27439437427307e-01
1.17489755493952e+03	9.00009505346410e-01,-4.36751246000183e-01
1.20226443461741e+03	8.95369131602354e-01,-4.46234415845726e-01
1.23026877081237e+03	8.90516939672233e-01,-4.55889748251913e-01
1.25892541179416e+03	8.85443599552683e-01,-4.65717842895270e-01
1.28824955169313e+03	8.80139402961478e-01,-4.75719078310903e-01
1.31825673855640e+03	8.74594251217577e-01,-4.85893590951818e-01
1.34896288259165e+03	8.68797643070006e-01,-4.96241252747907e-01
1.38038426460288e+03	8.62738662519146e-01,-5.06761647070084e-01
1.41253754462275e+03	8.56405966679918e-01,-5.17454042999900e-01
1.44543977074592e+03	8.49787773742933e-01,-5.28317367799621e-01
1.47910838816820e+03	8.42871851096745e-01,-5.39350177472236e-01
1.51356124843620e+03	8.35645503682303e-01,-5.50550625295090e-01
1.54881661891247e+03	8.28095562659193e-01,-5.61916428204862e-01
1.58489319246110e+03	8.20208374472732e-01,-5.73444830905475e-01
1.62181009735892e+03	8.11969790421218e-01,-5.85132567564081e-01
1.65958690743755e+03	8.03365156833883e-01,-5.96975820953707e-01
1.69824365246173e+03	7.94379305982355e-01,-6.08970178894304e-01
1.73780082874936e+03	7.84996547861772e-01,-6.21110587836910e-01
1.77827941003891e+03	7.75200662992290e-01,-6.33391303428349e-01
1.81970085860997e+03	7.64974896407594e-01,-6.45805837886409e-01
1.86208713666286e+03	7.54301953014287e-01,-6.58346904007660e-01
1.90546071796323e+03	7.43163994524891e-01,-6.71006355622060e-01
1.94984459975803e+03	7.31542638187688e-01,-6.83775124300214e-01
1.99526231496887e+03	7.19418957558924e-01,-6.96643152110450e-01
2.04173794466952e+03	7.06773485587276e-01,-7.09599320213975e-01
2.08929613085403e+03	6.93586220306930e-01,-7.22631373076884e-01
2.13796208950222e+03	6.79836633464547e-01,-7.35725838067930e-01
2.18776162394954e+03	6.65503682436964e-01,-7.48867940200501e-01
2.23872113856832e+03	6.50565825830945e-01,-7.62041511766028e-01
2.29086765276776e+03	6.35001043194057e-01,-7.75228896594065e-01
2.34422881531991e+03	6.18786859307236e-01,-7.88410848661240e-01
2.39883291901947e+03	6.01900373575090e-01,-8.01566424756939e-01
2.45470891568501e+03	5.84318295080324e-01,-8.14672870897804e-01
2.51188643150956e+03	5.66016983924203e-01,-8.27705502165354e-01
2.57039578276885e+03	5.46972499536808e-01,-8.40637575621041e-01
2.63026799189536e+03	5.27160656709666e-01,-8.53440155930180e-01
2.69153480392690e+03	5.06557090180675e-01,-8.66081973299920e-01
2.75422870333815e+03	4.85137328688172e-01,-8.78529273305869e-01
2.81838293126443e+03	4.62876879509778e-01,-8.90745658146457e-01
2.88403150312658e+03	4.39751324614131e-01,-9.02691918822314e-01
2.95120922666636e+03	4.15736429682887e-01,-9.14325857688802e-01
3.01995172040199e+03	3.90808267409803e-01,-9.25602100771796e-01
3.09029543251357e+03	3.64943356657726e-01,-9.36471899168134e-01
3.16227766016836e+03	3.38118819258488e-01,-9.46882918771066e-01
3.23593656929626e+03	3.10312556481967e-01,-9.56779017465093e-01
3.31131121482589e+03	2.81503447487738e-01,-9.66100008821612e-01
3.38844156139200e+03	2.51671572417096e-01,-9.74781411194074e-01
3.46736850452529e+03	2.20798463198770e-01,-9.82754180956249e-01
3.54813389233573e+03	1.88867385646738e-01,-9.89944428447330e-01
3.63078054770099e+03	1.55863657045913e-01,-9.96273114980764e-01
3.71535229097170e+03	1.21775004180703e-01,-1.00165572903897e+00
3.80189396320558e+03	8.65919677001131e-02,-1.00600193951422e+00
3.89045144994278e+03	5.03083598789164e-02,-1.00921522357079e+00
3.98107170553494e+03	1.29217842892998e-02,-1.01119246640359e+00
4.07380277804110e+03	-2.55657722807577e-02,-1.01182352987089e+00
4.16869383470332e+03	-6.51472630366186e-02,-1.01099078671181e+00
4.26579518801589e+03	-1.05809804003381e-01,-1.00856861686983e+00
4.36515832240162e+03	-1.47533777317347e-01,-1.00442286240667e+00
4.46683592150960e+03	-1.90291791225869e-01,-9.98410237721586e-01
4.57088189614871e+03	-2.34047467213941e-01,-9.90377692466256e-01
4.67735141287194e+03	-2.78754017309611e-01,-9.80161725930754e-01
4.78630092322634e+03	-3.24352565318442e-01,-9.67587654168421e-01
4.89778819368442e+03	-3.70770154025059e-01,-9.52468835315225e-01
5.01187233627268e+03	-4.17917365722295e-01,-9.34605865306320e-01
5.12861383991361e+03	-4.65685465165566e-01,-9.13785766762575e-01
5.24807460249768e+03	-5.13942951565372e-01,-8.89781210044974e-01
5.37031796370248e+03	-5.62531378973468e-01,-8.62349829994927e-01
5.49540873857620e+03	-6.11260272129983e-01,-8.31233738461081e-01
5.62341325190344e+03	-6.59900927930445e-01,-7.96159386676627e-01
5.75439937337152e+03	-7.08178852893593e-01,-7.56838010289852e-01
5.88843655355584e+03	-7.55764548596945e-01,-7.12967003433100e-01
6.02559586074353e+03	-8.02262328617150e-01,-6.64232729937356e-01
6.16595001861477e+03	-8.47196848137120e-01,-6.10315506404219e-01
6.30957344480188e+03	-8.89997079345985e-01,-5.50897802779350e-01
6.45654229034650e+03	-9.29977619610190e-01,-4.85677120507188e-01
6.60693448007590e+03	-9.66317551647600e-01,-4.14385537649044e-01
6.76082975391976e+03	-9.98037702782861e-01,-3.36818541899713e-01
6.91830970918931e+03	-1.02397824204545e+00,-2.52876438515788e-01
7.07945784384132e+03	-1.04278032820004e+00,-1.62622143400086e-01
7.24435960074984e+03	-1.05287821525227e+00,-6.63591794636886e-02
7.41310241300911e+03	-1.05251198211450e+00,3.52674936914545e-02
7.58577575029177e+03	-1.03977569323579e+00,1.41148660739287e-01
7.76247116628685e+03	-1.01272034079388e+00,2.49574114246226e-01
7.94328234724275e+03	-9.69532937473725e-01,3.58102476863488e-01
8.12830516164092e+03	-9.08808140976028e-01,4.63475795055679e-01
8.31763771102664e+03	-8.29910577540884e-01,5.61636770028639e-01
8.51138038202369e+03	-7.33389410619550e-01,6.47918240793273e-01
8.70963589956073e+03	-6.21354124891899e-01,7.17461494657122e-01
8.91250938133738e+03	-4.97670697536350e-01,7.65864727522378e-01
9.12010839355902e+03	-3.67827440614701e-01,7.89964578507642e-01
9.33254300796983e+03	-2.38387959362677e-01,7.88547198765027e-01
9.54992586021428e+03	-1.16096112122459e-01,7.62739700316475e-01
9.77237220955802e+03	-6.86072272034980e-03,7.15906885831757e-01
9.99999999999991e+03	8.50759928290634e-02,6.53058770684802e-01
1.02329299228075e+04	1.57552654611182e-01,5.79964219519343e-01
1.04712854805089e+04	2.10428165903224e-01,5.02253642695964e-01
1.07151930523760e+04	2.45161973115123e-01,4.24743161703907e-01
1.09647819614318e+04	2.64233404671557e-01,3.51080313513491e-01
1.12201845430195e+04	2.70579848978471e-01,2.83684491171972e-01
1.14815362149687e+04	2.67160213471512e-01,2.23886460034884e-01
